T3538 986:148 SEGGER J-Link V6.46 Log File (0001ms, 17762ms total)
T3538 986:148 DLL Compiled: May 23 2019 17:49:56 (0001ms, 17762ms total)
T3538 986:148 Logging started @ 2019-11-16 22:03 (0001ms, 17762ms total)
T3538 986:149 JLINK_SetWarnOutHandler(...) (0000ms, 17762ms total)
T3538 986:149 JLINK_OpenEx(...)
Firmware: J-Link V9 compiled May 17 2019 09:50:41
Hardware: V9.60
S/N: 69645793
Feature(s): RDI, GDB, FlashDL, FlashBP, JFlash
TELNET listener socket opened on port 19021WEBSRV 
Starting webserver (0045ms, 17807ms total)
T3538 986:149 WEBSRV Webserver running on local port 19080 (0049ms, 17811ms total)
T3538 986:149   returns O.K. (0049ms, 17811ms total)
T3538 986:198 JLINK_GetEmuCaps()  returns 0xB9FF7BBF (0000ms, 17811ms total)
T3538 986:199 JLINK_TIF_GetAvailable(...) (0001ms, 17812ms total)
T3538 986:200 JLINK_SetErrorOutHandler(...) (0000ms, 17812ms total)
T3538 986:200 JLINK_ExecCommand("ProjectFile = "C:\Users\emeili\Desktop\GitApp\TinyBord\ddzOffice\Tiny-bord\Software\BasicDemo\black-test\MDK-ARM\JLinkSettings.ini"", ...).   returns 0x00 (0004ms, 17816ms total)
T3538 986:210 JLINK_ExecCommand("Device = STM32F411CEUx", ...). Device "STM32F411CE" selected.  returns 0x00 (0004ms, 17820ms total)
T3538 986:214 JLINK_ExecCommand("DisableConnectionTimeout", ...).   returns 0x01 (0000ms, 17820ms total)
T3538 986:214 JLINK_GetHardwareVersion()  returns 0x17700 (0000ms, 17820ms total)
T3538 986:214 JLINK_GetDLLVersion()  returns 64600 (0000ms, 17820ms total)
T3538 986:214 JLINK_GetFirmwareString(...) (0000ms, 17820ms total)
T3538 986:229 JLINK_GetDLLVersion()  returns 64600 (0000ms, 17820ms total)
T3538 986:229 JLINK_GetCompileDateTime() (0000ms, 17820ms total)
T3538 986:234 JLINK_GetFirmwareString(...) (0000ms, 17820ms total)
T3538 986:237 JLINK_GetHardwareVersion()  returns 0x17700 (0000ms, 17820ms total)
T3538 986:247 JLINK_TIF_Select(JLINKARM_TIF_SWD)  returns 0x00 (0001ms, 17821ms total)
T3538 986:248 JLINK_SetSpeed(5000) (0000ms, 17821ms total)
T3538 986:248 JLINK_GetId() >0x10B TIF>Found SW-DP with ID 0x2BA01477 >0x0D TIF> >0x28 TIF> >0x0D TIF> >0x28 TIF> >0x0D TIF> >0x28 TIF> >0x0D TIF> >0x28 TIF> >0x0D TIF> >0x21 TIF> >0x0D TIF> >0x28 TIF> >0x0D TIF> >0x28 TIF> >0x0D TIF> >0x28 TIF> >0x0D TIF> >0x21 TIF> >0x0D TIF> >0x21 TIF> >0x0D TIF> >0x28 TIF> >0x0D TIF> >0x21 TIF> >0x0D TIF> >0x21 TIF> >0x0D TIF> >0x28 TIF> >0x0D TIF> >0x28 TIF> >0x0D TIF> >0x28 TIF> >0x0D TIF> >0x21 TIF> >0x0D TIF> >0x21 TIF> >0x0D TIF> >0x28 TIF> >0x0D TIF> >0x28 TIF>
 >0x0D TIF> >0x28 TIF> >0x0D TIF> >0x21 TIF> >0x0D TIF> >0x21 TIF> >0x0D TIF> >0x28 TIF> >0x0D TIF> >0x21 TIF> >0x0D TIF> >0x21 TIF> >0x0D TIF> >0x28 TIF> >0x0D TIF> >0x21 TIF> >0x0D TIF> >0x21 TIF> >0x10B TIF>Found SW-DP with ID 0x2BA01477 >0x0D TIF> >0x28 TIF> >0x0D TIF> >0x28 TIF> >0x0D TIF> >0x28 TIF> >0x0D TIF> >0x28 TIF> >0x0D TIF> >0x21 TIF> >0x0D TIF> >0x28 TIF>Scanning AP map to find all available APs >0x0D TIF> >0x28 TIF> >0x0D TIF> >0x21 TIF> >0x0D TIF> >0x21 TIF> >0x0D TIF> >0x28 TIF>
 >0x0D TIF> >0x21 TIF> >0x0D TIF> >0x21 TIF>AP[1]: Stopped AP scan as end of AP map has been reachedAP[0]: AHB-AP (IDR: 0x24770011)Iterating through AP map to find AHB-AP to use >0x42 TIF> >0x28 TIF> >0x0D TIF> >0x28 TIF> >0x0D TIF> >0x21 TIF> >0x0D TIF> >0x21 TIF> >0x42 TIF> >0x28 TIF> >0x0D TIF> >0x28 TIF> >0x0D TIF> >0x28 TIF> >0x0D TIF> >0x21 TIF> >0x0D TIF> >0x21 TIF>AP[0]: Core foundAP[0]: AHB-AP ROM base: 0xE00FF000 >0x0D TIF> >0x28 TIF> >0x0D TIF> >0x28 TIF> >0x0D TIF> >0x28 TIF> >0x0D TIF>
 >0x21 TIF> >0x0D TIF> >0x21 TIF>CPUID register: 0x410FC241. Implementer code: 0x41 (ARM)Found Cortex-M4 r0p1, Little endian. -- Max. mem block: 0x00010F28 -- CPU_ReadMem(4 bytes @ 0xE000EDF0) -- CPU_WriteMem(4 bytes @ 0xE000EDF0) -- CPU_ReadMem(4 bytes @ 0xE0002000)FPUnit: 6 code (BP) slots and 2 literal slots -- CPU_ReadMem(4 bytes @ 0xE000EDFC) -- CPU_WriteMem(4 bytes @ 0xE000EDFC) -- CPU_ReadMem(4 bytes @ 0xE0001000) -- CPU_WriteMem(4 bytes @ 0xE0001000) -- CPU_ReadMem(4 bytes @ 0xE000ED88)
 -- CPU_WriteMem(4 bytes @ 0xE000ED88) -- CPU_ReadMem(4 bytes @ 0xE000ED88) -- CPU_WriteMem(4 bytes @ 0xE000ED88)CoreSight components:ROMTbl[0] @ E00FF000 -- CPU_ReadMem(16 bytes @ 0xE00FF000) -- CPU_ReadMem(16 bytes @ 0xE000EFF0) -- CPU_ReadMem(16 bytes @ 0xE000EFE0)ROMTbl[0][0]: E000E000, CID: B105E00D, PID: 000BB00C SCS-M7 -- CPU_ReadMem(16 bytes @ 0xE0001FF0) -- CPU_ReadMem(16 bytes @ 0xE0001FE0)ROMTbl[0][1]: E0001000, CID: B105E00D, PID: 003BB002 DWT -- CPU_ReadMem(16 bytes @ 0xE0002FF0)
 -- CPU_ReadMem(16 bytes @ 0xE0002FE0)ROMTbl[0][2]: E0002000, CID: B105E00D, PID: 002BB003 FPB -- CPU_ReadMem(16 bytes @ 0xE0000FF0) -- CPU_ReadMem(16 bytes @ 0xE0000FE0)ROMTbl[0][3]: E0000000, CID: B105E00D, PID: 003BB001 ITM -- CPU_ReadMem(16 bytes @ 0xE00FF010) -- CPU_ReadMem(16 bytes @ 0xE0040FF0) -- CPU_ReadMem(16 bytes @ 0xE0040FE0)ROMTbl[0][4]: E0040000, CID: B105900D, PID: 000BB9A1 TPIU -- CPU_ReadMem(16 bytes @ 0xE0041FF0) -- CPU_ReadMem(16 bytes @ 0xE0041FE0)
ROMTbl[0][5]: E0041000, CID: B105900D, PID: 000BB925 ETM >0x0D TIF> >0x21 TIF>  returns 0x2BA01477 (0226ms, 18047ms total)
T3538 986:474 JLINK_GetDLLVersion()  returns 64600 (0000ms, 18047ms total)
T3538 986:474 JLINK_CORE_GetFound()  returns 0xE0000FF (0001ms, 18048ms total)
T3538 986:475 JLINK_GetDebugInfo(0x100 = JLINKARM_ROM_TABLE_ADDR_INDEX) -- Value=0xE00FF000  returns 0x00 (0000ms, 18048ms total)
T3538 986:477 JLINK_GetDebugInfo(0x100 = JLINKARM_ROM_TABLE_ADDR_INDEX) -- Value=0xE00FF000  returns 0x00 (0000ms, 18048ms total)
T3538 986:477 JLINK_GetDebugInfo(0x101 = JLINKARM_DEBUG_INFO_ETM_ADDR_INDEX) -- Value=0xE0041000  returns 0x00 (0000ms, 18048ms total)
T3538 986:477 JLINK_ReadMemEx(0xE0041FD0, 0x0020 Bytes, ..., Flags = 0x02000004) -- CPU_ReadMem(32 bytes @ 0xE0041FD0) - Data: 04 00 00 00 00 00 00 00 00 00 00 00 00 00 00 00 ...  returns 0x20 (0001ms, 18049ms total)
T3538 986:478 JLINK_GetDebugInfo(0x102 = JLINKARM_DEBUG_INFO_MTB_ADDR_INDEX) -- Value=0x00000000  returns 0x00 (0000ms, 18049ms total)
T3538 986:478 JLINK_GetDebugInfo(0x103 = JLINKARM_DEBUG_INFO_TPIU_ADDR_INDEX) -- Value=0xE0040000  returns 0x00 (0000ms, 18049ms total)
T3538 986:478 JLINK_GetDebugInfo(0x104 = JLINKARM_DEBUG_INFO_ITM_ADDR_INDEX) -- Value=0xE0000000  returns 0x00 (0000ms, 18049ms total)
T3538 986:478 JLINK_GetDebugInfo(0x105 = JLINKARM_DEBUG_INFO_DWT_ADDR_INDEX) -- Value=0xE0001000  returns 0x00 (0000ms, 18049ms total)
T3538 986:478 JLINK_GetDebugInfo(0x106 = JLINKARM_DEBUG_INFO_FPB_ADDR_INDEX) -- Value=0xE0002000  returns 0x00 (0000ms, 18049ms total)
T3538 986:478 JLINK_GetDebugInfo(0x107 = JLINKARM_DEBUG_INFO_NVIC_ADDR_INDEX) -- Value=0xE000E000  returns 0x00 (0000ms, 18049ms total)
T3538 986:478 JLINK_GetDebugInfo(0x10C = JLINKARM_DEBUG_INFO_DBG_ADDR_INDEX) -- Value=0xE000EDF0  returns 0x00 (0000ms, 18049ms total)
T3538 986:478 JLINK_GetDebugInfo(0x01 = Unknown) -- Value=0x00000001  returns 0x00 (0000ms, 18049ms total)
T3538 986:478 JLINK_ReadMemU32(0xE000ED00, 0x0001 Items, ...) -- CPU_ReadMem(4 bytes @ 0xE000ED00) - Data: 41 C2 0F 41  returns 1 (0000ms, 18049ms total)
T3538 986:478 JLINK_GetDebugInfo(0x10F = JLINKARM_DEBUG_INFO_HAS_CORTEX_M_SECURITY_EXT_INDEX) -- Value=0x00000000  returns 0x00 (0000ms, 18049ms total)
T3538 986:478 JLINK_SetResetType(JLINKARM_CM3_RESET_TYPE_NORMAL)  returns JLINKARM_CM3_RESET_TYPE_NORMAL (0000ms, 18049ms total)
T3538 986:478 JLINK_Reset() -- CPU is running -- CPU_WriteMem(4 bytes @ 0xE000EDF0) -- CPU is running -- CPU_WriteMem(4 bytes @ 0xE000EDFC)Reset: Halt core after reset via DEMCR.VC_CORERESET. >0x35 TIF>Reset: Reset device via AIRCR.SYSRESETREQ. -- CPU is running -- CPU_WriteMem(4 bytes @ 0xE000ED0C) >0x0D TIF> >0x28 TIF> -- CPU_ReadMem(4 bytes @ 0xE000EDF0) -- CPU_ReadMem(4 bytes @ 0xE000EDF0) -- CPU is running -- CPU_WriteMem(4 bytes @ 0xE000EDF0) -- CPU is running -- CPU_WriteMem(4 bytes @ 0xE000EDFC)
 -- CPU_ReadMem(4 bytes @ 0xE000EDF0) -- CPU_WriteMem(4 bytes @ 0xE0002000) -- CPU_ReadMem(4 bytes @ 0xE000EDFC) -- CPU_ReadMem(4 bytes @ 0xE0001000) (0074ms, 18123ms total)
T3538 986:552 JLINK_Halt()  returns 0x00 (0000ms, 18123ms total)
T3538 986:552 JLINK_ReadMemU32(0xE000EDF0, 0x0001 Items, ...) -- CPU_ReadMem(4 bytes @ 0xE000EDF0) - Data: 03 00 03 00  returns 1 (0000ms, 18123ms total)
T3538 986:552 JLINK_WriteU32(0xE000EDF0, 0xA05F0003) -- CPU_WriteMem(4 bytes @ 0xE000EDF0)  returns 0 (0001ms, 18124ms total)
T3538 986:553 JLINK_WriteU32(0xE000EDFC, 0x01000000) -- CPU_WriteMem(4 bytes @ 0xE000EDFC)  returns 0 (0001ms, 18125ms total)
T3538 986:564 JLINK_GetHWStatus(...)  returns 0x00 (0000ms, 18125ms total)
T3538 986:573 JLINK_GetNumBPUnits(Type = 0xFFFFFF00)  returns 0x06 (0000ms, 18125ms total)
T3538 986:573 JLINK_GetNumBPUnits(Type = 0xF0)  returns 0x2000 (0000ms, 18125ms total)
T3538 986:573 JLINK_GetNumWPUnits()  returns 0x04 (0000ms, 18125ms total)
T3538 986:581 JLINK_GetSpeed()  returns 0xFA0 (0000ms, 18125ms total)
T3538 986:588 JLINK_ReadMemU32(0xE000E004, 0x0001 Items, ...) -- CPU_ReadMem(4 bytes @ 0xE000E004) - Data: 02 00 00 00  returns 1 (0001ms, 18126ms total)
T3538 986:589 JLINK_ReadMemU32(0xE000E004, 0x0001 Items, ...) -- CPU_ReadMem(4 bytes @ 0xE000E004) - Data: 02 00 00 00  returns 1 (0000ms, 18126ms total)
T3538 986:589 JLINK_WriteMemEx(0xE0001000, 0x001C Bytes, ..., Flags = 0x02000004) - Data: 01 00 00 00 00 00 00 00 00 00 00 00 00 00 00 00 ... -- CPU_WriteMem(28 bytes @ 0xE0001000)  returns 0x1C (0002ms, 18128ms total)
T3538 986:591 JLINK_Halt()  returns 0x00 (0000ms, 18128ms total)
T3538 986:591 JLINK_IsHalted()  returns TRUE (0000ms, 18128ms total)
T3538 986:594 JLINK_WriteMem(0x20000000, 0x0188 Bytes, ...) - Data: 00 BE 0A E0 0D 78 2D 06 68 40 08 24 40 00 00 D3 ... -- CPU_WriteMem(392 bytes @ 0x20000000)  returns 0x188 (0003ms, 18131ms total)
T3538 986:597 JLINK_WriteReg(R0, 0x08000000)  returns 0x00 (0000ms, 18131ms total)
T3538 986:597 JLINK_WriteReg(R1, 0x02FAF080)  returns 0x00 (0000ms, 18131ms total)
T3538 986:597 JLINK_WriteReg(R2, 0x00000001)  returns 0x00 (0000ms, 18131ms total)
T3538 986:597 JLINK_WriteReg(R3, 0x00000000)  returns 0x00 (0000ms, 18131ms total)
T3538 986:597 JLINK_WriteReg(R4, 0x00000000)  returns 0x00 (0001ms, 18132ms total)
T3538 986:598 JLINK_WriteReg(R5, 0x00000000)  returns 0x00 (0000ms, 18132ms total)
T3538 986:598 JLINK_WriteReg(R6, 0x00000000)  returns 0x00 (0000ms, 18132ms total)
T3538 986:598 JLINK_WriteReg(R7, 0x00000000)  returns 0x00 (0000ms, 18132ms total)
T3538 986:598 JLINK_WriteReg(R8, 0x00000000)  returns 0x00 (0000ms, 18132ms total)
T3538 986:598 JLINK_WriteReg(R9, 0x20000184)  returns 0x00 (0000ms, 18132ms total)
T3538 986:598 JLINK_WriteReg(R10, 0x00000000)  returns 0x00 (0000ms, 18132ms total)
T3538 986:598 JLINK_WriteReg(R11, 0x00000000)  returns 0x00 (0000ms, 18132ms total)
T3538 986:598 JLINK_WriteReg(R12, 0x00000000)  returns 0x00 (0000ms, 18132ms total)
T3538 986:598 JLINK_WriteReg(R13 (SP), 0x20001000)  returns 0x00 (0000ms, 18132ms total)
T3538 986:598 JLINK_WriteReg(R14, 0x20000001)  returns 0x00 (0000ms, 18132ms total)
T3538 986:598 JLINK_WriteReg(R15 (PC), 0x2000005E)  returns 0x00 (0000ms, 18132ms total)
T3538 986:599 JLINK_WriteReg(XPSR, 0x01000000)  returns 0x00 (0000ms, 18132ms total)
T3538 986:599 JLINK_WriteReg(MSP, 0x20001000)  returns 0x00 (0000ms, 18132ms total)
T3538 986:599 JLINK_WriteReg(PSP, 0x20001000)  returns 0x00 (0000ms, 18132ms total)
T3538 986:599 JLINK_WriteReg(CFBP, 0x00000000)  returns 0x00 (0000ms, 18132ms total)
T3538 986:599 JLINK_SetBPEx(Addr = 0x20000000, Type = 0xFFFFFFF2) -- CPU_ReadMem(2 bytes @ 0x20000000)  returns 0x00000001 (0001ms, 18133ms total)
T3538 986:600 JLINK_Go() -- CPU_WriteMem(2 bytes @ 0x20000000) -- CPU_ReadMem(4 bytes @ 0xE0001000) -- CPU_WriteMem(4 bytes @ 0xE0002008) -- CPU_WriteMem(4 bytes @ 0xE000200C) -- CPU_WriteMem(4 bytes @ 0xE0002010) -- CPU_WriteMem(4 bytes @ 0xE0002014) -- CPU_WriteMem(4 bytes @ 0xE0002018) -- CPU_WriteMem(4 bytes @ 0xE000201C) -- CPU_WriteMem(4 bytes @ 0xE0001004) (0005ms, 18138ms total)
T3538 986:605 JLINK_IsHalted() -- CPU_ReadMem(2 bytes @ 0x20000000)  returns TRUE (0004ms, 18142ms total)
T3538 986:609 JLINK_ReadReg(R15 (PC))  returns 0x20000000 (0000ms, 18138ms total)
T3538 986:609 JLINK_ClrBPEx(BPHandle = 0x00000001)  returns 0x00 (0000ms, 18138ms total)
T3538 986:609 JLINK_ReadReg(R0)  returns 0x00000000 (0000ms, 18138ms total)
T3538 986:609 JLINK_WriteReg(R0, 0x08000000)  returns 0x00 (0000ms, 18138ms total)
T3538 986:609 JLINK_WriteReg(R1, 0x00004000)  returns 0x00 (0000ms, 18138ms total)
T3538 986:609 JLINK_WriteReg(R2, 0x000000FF)  returns 0x00 (0000ms, 18138ms total)
T3538 986:609 JLINK_WriteReg(R3, 0x00000000)  returns 0x00 (0000ms, 18138ms total)
T3538 986:609 JLINK_WriteReg(R4, 0x00000000)  returns 0x00 (0000ms, 18138ms total)
T3538 986:609 JLINK_WriteReg(R5, 0x00000000)  returns 0x00 (0000ms, 18138ms total)
T3538 986:609 JLINK_WriteReg(R6, 0x00000000)  returns 0x00 (0000ms, 18138ms total)
T3538 986:609 JLINK_WriteReg(R7, 0x00000000)  returns 0x00 (0000ms, 18138ms total)
T3538 986:609 JLINK_WriteReg(R8, 0x00000000)  returns 0x00 (0001ms, 18139ms total)
T3538 986:610 JLINK_WriteReg(R9, 0x20000184)  returns 0x00 (0000ms, 18139ms total)
T3538 986:610 JLINK_WriteReg(R10, 0x00000000)  returns 0x00 (0000ms, 18139ms total)
T3538 986:610 JLINK_WriteReg(R11, 0x00000000)  returns 0x00 (0000ms, 18139ms total)
T3538 986:610 JLINK_WriteReg(R12, 0x00000000)  returns 0x00 (0000ms, 18139ms total)
T3538 986:610 JLINK_WriteReg(R13 (SP), 0x20001000)  returns 0x00 (0000ms, 18139ms total)
T3538 986:610 JLINK_WriteReg(R14, 0x20000001)  returns 0x00 (0000ms, 18139ms total)
T3538 986:610 JLINK_WriteReg(R15 (PC), 0x20000020)  returns 0x00 (0000ms, 18139ms total)
T3538 986:610 JLINK_WriteReg(XPSR, 0x01000000)  returns 0x00 (0000ms, 18139ms total)
T3538 986:610 JLINK_WriteReg(MSP, 0x20001000)  returns 0x00 (0000ms, 18139ms total)
T3538 986:610 JLINK_WriteReg(PSP, 0x20001000)  returns 0x00 (0000ms, 18139ms total)
T3538 986:610 JLINK_WriteReg(CFBP, 0x00000000)  returns 0x00 (0000ms, 18139ms total)
T3538 986:610 JLINK_SetBPEx(Addr = 0x20000000, Type = 0xFFFFFFF2)  returns 0x00000002 (0000ms, 18139ms total)
T3538 986:610 JLINK_Go() -- CPU_ReadMem(4 bytes @ 0xE0001000) (0003ms, 18142ms total)
T3538 986:613 JLINK_IsHalted() -- CPU_ReadMem(2 bytes @ 0x20000000)  returns TRUE (0004ms, 18146ms total)
T3538 986:617 JLINK_ReadReg(R15 (PC))  returns 0x20000000 (0000ms, 18142ms total)
T3538 986:617 JLINK_ClrBPEx(BPHandle = 0x00000002)  returns 0x00 (0000ms, 18142ms total)
T3538 986:617 JLINK_ReadReg(R0)  returns 0x00000001 (0000ms, 18142ms total)
T3538 986:617 JLINK_WriteReg(R0, 0x08000000)  returns 0x00 (0000ms, 18142ms total)
T3538 986:617 JLINK_WriteReg(R1, 0x00004000)  returns 0x00 (0000ms, 18142ms total)
T3538 986:617 JLINK_WriteReg(R2, 0x000000FF)  returns 0x00 (0000ms, 18142ms total)
T3538 986:617 JLINK_WriteReg(R3, 0x00000000)  returns 0x00 (0000ms, 18142ms total)
T3538 986:617 JLINK_WriteReg(R4, 0x00000000)  returns 0x00 (0000ms, 18142ms total)
T3538 986:617 JLINK_WriteReg(R5, 0x00000000)  returns 0x00 (0000ms, 18142ms total)
T3538 986:617 JLINK_WriteReg(R6, 0x00000000)  returns 0x00 (0000ms, 18142ms total)
T3538 986:617 JLINK_WriteReg(R7, 0x00000000)  returns 0x00 (0000ms, 18142ms total)
T3538 986:617 JLINK_WriteReg(R8, 0x00000000)  returns 0x00 (0000ms, 18142ms total)
T3538 986:617 JLINK_WriteReg(R9, 0x20000184)  returns 0x00 (0000ms, 18142ms total)
T3538 986:617 JLINK_WriteReg(R10, 0x00000000)  returns 0x00 (0000ms, 18142ms total)
T3538 986:617 JLINK_WriteReg(R11, 0x00000000)  returns 0x00 (0000ms, 18142ms total)
T3538 986:617 JLINK_WriteReg(R12, 0x00000000)  returns 0x00 (0000ms, 18142ms total)
T3538 986:617 JLINK_WriteReg(R13 (SP), 0x20001000)  returns 0x00 (0000ms, 18142ms total)
T3538 986:617 JLINK_WriteReg(R14, 0x20000001)  returns 0x00 (0001ms, 18143ms total)
T3538 986:618 JLINK_WriteReg(R15 (PC), 0x200000C6)  returns 0x00 (0000ms, 18143ms total)
T3538 986:618 JLINK_WriteReg(XPSR, 0x01000000)  returns 0x00 (0000ms, 18143ms total)
T3538 986:618 JLINK_WriteReg(MSP, 0x20001000)  returns 0x00 (0000ms, 18143ms total)
T3538 986:618 JLINK_WriteReg(PSP, 0x20001000)  returns 0x00 (0000ms, 18143ms total)
T3538 986:618 JLINK_WriteReg(CFBP, 0x00000000)  returns 0x00 (0000ms, 18143ms total)
T3538 986:618 JLINK_SetBPEx(Addr = 0x20000000, Type = 0xFFFFFFF2)  returns 0x00000003 (0000ms, 18143ms total)
T3538 986:618 JLINK_Go() -- CPU_ReadMem(4 bytes @ 0xE0001000) (0003ms, 18146ms total)
T3538 986:621 JLINK_IsHalted()  returns FALSE (0000ms, 18146ms total)
T3538 986:698 JLINK_IsHalted()  returns FALSE (0000ms, 18146ms total)
T3538 986:700 JLINK_IsHalted()  returns FALSE (0001ms, 18147ms total)
T3538 986:704 JLINK_IsHalted()  returns FALSE (0000ms, 18146ms total)
T3538 986:706 JLINK_IsHalted()  returns FALSE (0000ms, 18146ms total)
T3538 986:709 JLINK_IsHalted()  returns FALSE (0000ms, 18146ms total)
T3538 986:711 JLINK_IsHalted()  returns FALSE (0000ms, 18146ms total)
T3538 986:713 JLINK_IsHalted()  returns FALSE (0000ms, 18146ms total)
T3538 986:715 JLINK_IsHalted()  returns FALSE (0000ms, 18146ms total)
T3538 986:719 JLINK_IsHalted()  returns FALSE (0000ms, 18146ms total)
T3538 986:721 JLINK_IsHalted()  returns FALSE (0000ms, 18146ms total)
T3538 986:725 JLINK_IsHalted()  returns FALSE (0000ms, 18146ms total)
T3538 986:727 JLINK_IsHalted()  returns FALSE (0000ms, 18146ms total)
T3538 986:729 JLINK_IsHalted()  returns FALSE (0000ms, 18146ms total)
T3538 986:731 JLINK_IsHalted()  returns FALSE (0000ms, 18146ms total)
T3538 986:734 JLINK_IsHalted()  returns FALSE (0000ms, 18146ms total)
T3538 986:736 JLINK_IsHalted()  returns FALSE (0000ms, 18146ms total)
T3538 986:738 JLINK_IsHalted()  returns FALSE (0000ms, 18146ms total)
T3538 986:741 JLINK_IsHalted()  returns FALSE (0000ms, 18146ms total)
T3538 986:743 JLINK_IsHalted()  returns FALSE (0000ms, 18146ms total)
T3538 986:745 JLINK_IsHalted()  returns FALSE (0000ms, 18146ms total)
T3538 986:747 JLINK_IsHalted()  returns FALSE (0000ms, 18146ms total)
T3538 986:750 JLINK_IsHalted()  returns FALSE (0000ms, 18146ms total)
T3538 986:752 JLINK_IsHalted()  returns FALSE (0000ms, 18146ms total)
T3538 986:754 JLINK_IsHalted()  returns FALSE (0000ms, 18146ms total)
T3538 986:759 JLINK_IsHalted()  returns FALSE (0000ms, 18146ms total)
T3538 986:761 JLINK_IsHalted()  returns FALSE (0000ms, 18146ms total)
T3538 986:763 JLINK_IsHalted()  returns FALSE (0000ms, 18146ms total)
T3538 986:766 JLINK_IsHalted()  returns FALSE (0000ms, 18146ms total)
T3538 986:768 JLINK_IsHalted()  returns FALSE (0000ms, 18146ms total)
T3538 986:770 JLINK_IsHalted()  returns FALSE (0000ms, 18146ms total)
T3538 986:773 JLINK_IsHalted()  returns FALSE (0000ms, 18146ms total)
T3538 986:775 JLINK_IsHalted()  returns FALSE (0000ms, 18146ms total)
T3538 986:777 JLINK_IsHalted()  returns FALSE (0000ms, 18146ms total)
T3538 986:779 JLINK_IsHalted()  returns FALSE (0000ms, 18146ms total)
T3538 986:782 JLINK_IsHalted()  returns FALSE (0000ms, 18146ms total)
T3538 986:784 JLINK_IsHalted()  returns FALSE (0000ms, 18146ms total)
T3538 986:786 JLINK_IsHalted()  returns FALSE (0000ms, 18146ms total)
T3538 986:789 JLINK_IsHalted()  returns FALSE (0000ms, 18146ms total)
T3538 986:791 JLINK_IsHalted()  returns FALSE (0000ms, 18146ms total)
T3538 986:793 JLINK_IsHalted()  returns FALSE (0000ms, 18146ms total)
T3538 986:795 JLINK_IsHalted()  returns FALSE (0000ms, 18146ms total)
T3538 986:798 JLINK_IsHalted()  returns FALSE (0000ms, 18146ms total)
T3538 986:800 JLINK_IsHalted()  returns FALSE (0000ms, 18146ms total)
T3538 986:802 JLINK_IsHalted()  returns FALSE (0000ms, 18146ms total)
T3538 986:807 JLINK_IsHalted()  returns FALSE (0000ms, 18146ms total)
T3538 986:809 JLINK_IsHalted()  returns FALSE (0000ms, 18146ms total)
T3538 986:811 JLINK_IsHalted()  returns FALSE (0000ms, 18146ms total)
T3538 986:814 JLINK_IsHalted()  returns FALSE (0000ms, 18146ms total)
T3538 986:816 JLINK_IsHalted()  returns FALSE (0000ms, 18146ms total)
T3538 986:818 JLINK_IsHalted()  returns FALSE (0000ms, 18146ms total)
T3538 986:821 JLINK_IsHalted()  returns FALSE (0000ms, 18146ms total)
T3538 986:823 JLINK_IsHalted()  returns FALSE (0000ms, 18146ms total)
T3538 986:825 JLINK_IsHalted()  returns FALSE (0000ms, 18146ms total)
T3538 986:827 JLINK_IsHalted()  returns FALSE (0000ms, 18146ms total)
T3538 986:830 JLINK_IsHalted()  returns FALSE (0000ms, 18146ms total)
T3538 986:832 JLINK_IsHalted()  returns FALSE (0000ms, 18146ms total)
T3538 986:834 JLINK_IsHalted()  returns FALSE (0000ms, 18146ms total)
T3538 986:838 JLINK_IsHalted()  returns FALSE (0000ms, 18146ms total)
T3538 986:840 JLINK_IsHalted()  returns FALSE (0000ms, 18146ms total)
T3538 986:842 JLINK_IsHalted()  returns FALSE (0000ms, 18146ms total)
T3538 986:844 JLINK_IsHalted()  returns FALSE (0000ms, 18146ms total)
T3538 986:847 JLINK_IsHalted()  returns FALSE (0000ms, 18146ms total)
T3538 986:849 JLINK_IsHalted()  returns FALSE (0000ms, 18146ms total)
T3538 986:851 JLINK_IsHalted()  returns FALSE (0000ms, 18146ms total)
T3538 986:854 JLINK_IsHalted()  returns FALSE (0000ms, 18146ms total)
T3538 986:856 JLINK_IsHalted()  returns FALSE (0000ms, 18146ms total)
T3538 986:858 JLINK_IsHalted()  returns FALSE (0000ms, 18146ms total)
T3538 986:861 JLINK_IsHalted()  returns FALSE (0000ms, 18146ms total)
T3538 986:863 JLINK_IsHalted()  returns FALSE (0000ms, 18146ms total)
T3538 986:865 JLINK_IsHalted()  returns FALSE (0000ms, 18146ms total)
T3538 986:867 JLINK_IsHalted()  returns FALSE (0000ms, 18146ms total)
T3538 986:870 JLINK_IsHalted()  returns FALSE (0000ms, 18146ms total)
T3538 986:872 JLINK_IsHalted()  returns FALSE (0000ms, 18146ms total)
T3538 986:874 JLINK_IsHalted()  returns FALSE (0000ms, 18146ms total)
T3538 986:877 JLINK_IsHalted()  returns FALSE (0000ms, 18146ms total)
T3538 986:879 JLINK_IsHalted()  returns FALSE (0000ms, 18146ms total)
T3538 986:881 JLINK_IsHalted()  returns FALSE (0000ms, 18146ms total)
T3538 986:883 JLINK_IsHalted()  returns FALSE (0000ms, 18146ms total)
T3538 986:887 JLINK_IsHalted()  returns FALSE (0000ms, 18146ms total)
T3538 986:889 JLINK_IsHalted()  returns FALSE (0000ms, 18146ms total)
T3538 986:891 JLINK_IsHalted()  returns FALSE (0000ms, 18146ms total)
T3538 986:894 JLINK_IsHalted()  returns FALSE (0000ms, 18146ms total)
T3538 986:896 JLINK_IsHalted()  returns FALSE (0000ms, 18146ms total)
T3538 986:898 JLINK_IsHalted()  returns FALSE (0000ms, 18146ms total)
T3538 986:900 JLINK_IsHalted()  returns FALSE (0000ms, 18146ms total)
T3538 986:904 JLINK_IsHalted()  returns FALSE (0000ms, 18146ms total)
T3538 986:906 JLINK_IsHalted()  returns FALSE (0000ms, 18146ms total)
T3538 986:910 JLINK_IsHalted()  returns FALSE (0000ms, 18146ms total)
T3538 986:912 JLINK_IsHalted()  returns FALSE (0000ms, 18146ms total)
T3538 986:914 JLINK_IsHalted()  returns FALSE (0000ms, 18146ms total)
T3538 986:917 JLINK_IsHalted()  returns FALSE (0000ms, 18146ms total)
T3538 986:919 JLINK_IsHalted()  returns FALSE (0000ms, 18146ms total)
T3538 986:921 JLINK_IsHalted()  returns FALSE (0000ms, 18146ms total)
T3538 986:923 JLINK_IsHalted()  returns FALSE (0000ms, 18146ms total)
T3538 986:926 JLINK_IsHalted()  returns FALSE (0000ms, 18146ms total)
T3538 986:928 JLINK_IsHalted()  returns FALSE (0000ms, 18146ms total)
T3538 986:930 JLINK_IsHalted()  returns FALSE (0000ms, 18146ms total)
T3538 986:932 JLINK_IsHalted()  returns FALSE (0000ms, 18146ms total)
T3538 986:936 JLINK_IsHalted()  returns FALSE (0000ms, 18146ms total)
T3538 986:938 JLINK_IsHalted()  returns FALSE (0000ms, 18146ms total)
T3538 986:940 JLINK_IsHalted()  returns FALSE (0000ms, 18146ms total)
T3538 986:943 JLINK_IsHalted()  returns FALSE (0000ms, 18146ms total)
T3538 986:945 JLINK_IsHalted()  returns FALSE (0000ms, 18146ms total)
T3538 986:947 JLINK_IsHalted()  returns FALSE (0000ms, 18146ms total)
T3538 986:950 JLINK_IsHalted()  returns FALSE (0000ms, 18146ms total)
T3538 986:952 JLINK_IsHalted()  returns FALSE (0000ms, 18146ms total)
T3538 986:954 JLINK_IsHalted()  returns FALSE (0000ms, 18146ms total)
T3538 986:957 JLINK_IsHalted() -- CPU_ReadMem(2 bytes @ 0x20000000)  returns TRUE (0002ms, 18148ms total)
T3538 986:959 JLINK_ReadReg(R15 (PC))  returns 0x20000000 (0000ms, 18146ms total)
T3538 986:959 JLINK_ClrBPEx(BPHandle = 0x00000003)  returns 0x00 (0001ms, 18147ms total)
T3538 986:960 JLINK_ReadReg(R0)  returns 0x00000000 (0000ms, 18147ms total)
T3538 986:960 JLINK_WriteReg(R0, 0x00000001)  returns 0x00 (0000ms, 18147ms total)
T3538 986:960 JLINK_WriteReg(R1, 0x00004000)  returns 0x00 (0000ms, 18147ms total)
T3538 986:960 JLINK_WriteReg(R2, 0x000000FF)  returns 0x00 (0000ms, 18147ms total)
T3538 986:960 JLINK_WriteReg(R3, 0x00000000)  returns 0x00 (0000ms, 18147ms total)
T3538 986:960 JLINK_WriteReg(R4, 0x00000000)  returns 0x00 (0000ms, 18147ms total)
T3538 986:960 JLINK_WriteReg(R5, 0x00000000)  returns 0x00 (0000ms, 18147ms total)
T3538 986:960 JLINK_WriteReg(R6, 0x00000000)  returns 0x00 (0000ms, 18147ms total)
T3538 986:960 JLINK_WriteReg(R7, 0x00000000)  returns 0x00 (0000ms, 18147ms total)
T3538 986:960 JLINK_WriteReg(R8, 0x00000000)  returns 0x00 (0000ms, 18147ms total)
T3538 986:960 JLINK_WriteReg(R9, 0x20000184)  returns 0x00 (0000ms, 18147ms total)
T3538 986:960 JLINK_WriteReg(R10, 0x00000000)  returns 0x00 (0000ms, 18147ms total)
T3538 986:960 JLINK_WriteReg(R11, 0x00000000)  returns 0x00 (0000ms, 18147ms total)
T3538 986:960 JLINK_WriteReg(R12, 0x00000000)  returns 0x00 (0000ms, 18147ms total)
T3538 986:960 JLINK_WriteReg(R13 (SP), 0x20001000)  returns 0x00 (0000ms, 18147ms total)
T3538 986:960 JLINK_WriteReg(R14, 0x20000001)  returns 0x00 (0000ms, 18147ms total)
T3538 986:960 JLINK_WriteReg(R15 (PC), 0x2000008C)  returns 0x00 (0000ms, 18147ms total)
T3538 986:960 JLINK_WriteReg(XPSR, 0x01000000)  returns 0x00 (0000ms, 18147ms total)
T3538 986:960 JLINK_WriteReg(MSP, 0x20001000)  returns 0x00 (0000ms, 18147ms total)
T3538 986:960 JLINK_WriteReg(PSP, 0x20001000)  returns 0x00 (0000ms, 18147ms total)
T3538 986:960 JLINK_WriteReg(CFBP, 0x00000000)  returns 0x00 (0000ms, 18147ms total)
T3538 986:960 JLINK_SetBPEx(Addr = 0x20000000, Type = 0xFFFFFFF2)  returns 0x00000004 (0000ms, 18147ms total)
T3538 986:960 JLINK_Go() -- CPU_ReadMem(4 bytes @ 0xE0001000) (0003ms, 18150ms total)
T3538 986:963 JLINK_IsHalted() -- CPU_ReadMem(2 bytes @ 0x20000000)  returns TRUE (0004ms, 18154ms total)
T3538 986:967 JLINK_ReadReg(R15 (PC))  returns 0x20000000 (0000ms, 18150ms total)
T3538 986:967 JLINK_ClrBPEx(BPHandle = 0x00000004)  returns 0x00 (0000ms, 18150ms total)
T3538 986:967 JLINK_ReadReg(R0)  returns 0x00000000 (0000ms, 18150ms total)
T3538 987:025 JLINK_WriteMem(0x20000000, 0x0188 Bytes, ...) - Data: 00 BE 0A E0 0D 78 2D 06 68 40 08 24 40 00 00 D3 ... -- CPU_WriteMem(392 bytes @ 0x20000000)  returns 0x188 (0002ms, 18152ms total)
T3538 987:027 JLINK_WriteReg(R0, 0x08000000)  returns 0x00 (0001ms, 18153ms total)
T3538 987:028 JLINK_WriteReg(R1, 0x02FAF080)  returns 0x00 (0000ms, 18153ms total)
T3538 987:028 JLINK_WriteReg(R2, 0x00000002)  returns 0x00 (0000ms, 18153ms total)
T3538 987:028 JLINK_WriteReg(R3, 0x00000000)  returns 0x00 (0000ms, 18153ms total)
T3538 987:028 JLINK_WriteReg(R4, 0x00000000)  returns 0x00 (0000ms, 18153ms total)
T3538 987:028 JLINK_WriteReg(R5, 0x00000000)  returns 0x00 (0000ms, 18153ms total)
T3538 987:028 JLINK_WriteReg(R6, 0x00000000)  returns 0x00 (0000ms, 18153ms total)
T3538 987:028 JLINK_WriteReg(R7, 0x00000000)  returns 0x00 (0000ms, 18153ms total)
T3538 987:028 JLINK_WriteReg(R8, 0x00000000)  returns 0x00 (0000ms, 18153ms total)
T3538 987:028 JLINK_WriteReg(R9, 0x20000184)  returns 0x00 (0000ms, 18153ms total)
T3538 987:028 JLINK_WriteReg(R10, 0x00000000)  returns 0x00 (0000ms, 18153ms total)
T3538 987:028 JLINK_WriteReg(R11, 0x00000000)  returns 0x00 (0000ms, 18153ms total)
T3538 987:028 JLINK_WriteReg(R12, 0x00000000)  returns 0x00 (0000ms, 18153ms total)
T3538 987:028 JLINK_WriteReg(R13 (SP), 0x20001000)  returns 0x00 (0000ms, 18153ms total)
T3538 987:028 JLINK_WriteReg(R14, 0x20000001)  returns 0x00 (0000ms, 18153ms total)
T3538 987:028 JLINK_WriteReg(R15 (PC), 0x2000005E)  returns 0x00 (0000ms, 18153ms total)
T3538 987:028 JLINK_WriteReg(XPSR, 0x01000000)  returns 0x00 (0000ms, 18153ms total)
T3538 987:028 JLINK_WriteReg(MSP, 0x20001000)  returns 0x00 (0000ms, 18153ms total)
T3538 987:028 JLINK_WriteReg(PSP, 0x20001000)  returns 0x00 (0000ms, 18153ms total)
T3538 987:028 JLINK_WriteReg(CFBP, 0x00000000)  returns 0x00 (0000ms, 18153ms total)
T3538 987:028 JLINK_SetBPEx(Addr = 0x20000000, Type = 0xFFFFFFF2) -- CPU_ReadMem(2 bytes @ 0x20000000)  returns 0x00000005 (0000ms, 18153ms total)
T3538 987:028 JLINK_Go() -- CPU_WriteMem(2 bytes @ 0x20000000) -- CPU_ReadMem(4 bytes @ 0xE0001000) (0004ms, 18157ms total)
T3538 987:032 JLINK_IsHalted() -- CPU_ReadMem(2 bytes @ 0x20000000)  returns TRUE (0003ms, 18160ms total)
T3538 987:035 JLINK_ReadReg(R15 (PC))  returns 0x20000000 (0000ms, 18157ms total)
T3538 987:035 JLINK_ClrBPEx(BPHandle = 0x00000005)  returns 0x00 (0000ms, 18157ms total)
T3538 987:035 JLINK_ReadReg(R0)  returns 0x00000000 (0000ms, 18157ms total)
T3538 987:035 JLINK_WriteMem(0x20000188, 0x0278 Bytes, ...) - Data: B8 06 00 20 39 02 00 08 07 0E 00 08 9F 0D 00 08 ... -- CPU_WriteMem(632 bytes @ 0x20000188)  returns 0x278 (0003ms, 18160ms total)
T3538 987:038 JLINK_WriteMem(0x20000400, 0x0188 Bytes, ...) - Data: 53 EA 02 0C 00 F0 69 80 2D E9 F0 4B 4F F0 00 06 ... -- CPU_WriteMem(392 bytes @ 0x20000400)  returns 0x188 (0002ms, 18162ms total)
T3538 987:040 JLINK_WriteReg(R0, 0x08000000)  returns 0x00 (0000ms, 18162ms total)
T3538 987:040 JLINK_WriteReg(R1, 0x00000400)  returns 0x00 (0000ms, 18162ms total)
T3538 987:040 JLINK_WriteReg(R2, 0x20000188)  returns 0x00 (0000ms, 18162ms total)
T3538 987:040 JLINK_WriteReg(R3, 0x00000000)  returns 0x00 (0000ms, 18162ms total)
T3538 987:040 JLINK_WriteReg(R4, 0x00000000)  returns 0x00 (0000ms, 18162ms total)
T3538 987:040 JLINK_WriteReg(R5, 0x00000000)  returns 0x00 (0000ms, 18162ms total)
T3538 987:040 JLINK_WriteReg(R6, 0x00000000)  returns 0x00 (0000ms, 18162ms total)
T3538 987:040 JLINK_WriteReg(R7, 0x00000000)  returns 0x00 (0000ms, 18162ms total)
T3538 987:040 JLINK_WriteReg(R8, 0x00000000)  returns 0x00 (0000ms, 18162ms total)
T3538 987:040 JLINK_WriteReg(R9, 0x20000184)  returns 0x00 (0000ms, 18162ms total)
T3538 987:040 JLINK_WriteReg(R10, 0x00000000)  returns 0x00 (0000ms, 18162ms total)
T3538 987:040 JLINK_WriteReg(R11, 0x00000000)  returns 0x00 (0000ms, 18162ms total)
T3538 987:040 JLINK_WriteReg(R12, 0x00000000)  returns 0x00 (0000ms, 18162ms total)
T3538 987:040 JLINK_WriteReg(R13 (SP), 0x20001000)  returns 0x00 (0000ms, 18162ms total)
T3538 987:040 JLINK_WriteReg(R14, 0x20000001)  returns 0x00 (0000ms, 18162ms total)
T3538 987:040 JLINK_WriteReg(R15 (PC), 0x20000112)  returns 0x00 (0000ms, 18162ms total)
T3538 987:040 JLINK_WriteReg(XPSR, 0x01000000)  returns 0x00 (0000ms, 18162ms total)
T3538 987:040 JLINK_WriteReg(MSP, 0x20001000)  returns 0x00 (0000ms, 18162ms total)
T3538 987:040 JLINK_WriteReg(PSP, 0x20001000)  returns 0x00 (0000ms, 18162ms total)
T3538 987:040 JLINK_WriteReg(CFBP, 0x00000000)  returns 0x00 (0001ms, 18163ms total)
T3538 987:041 JLINK_SetBPEx(Addr = 0x20000000, Type = 0xFFFFFFF2)  returns 0x00000006 (0000ms, 18163ms total)
T3538 987:041 JLINK_Go() -- CPU_ReadMem(4 bytes @ 0xE0001000) (0002ms, 18165ms total)
T3538 987:043 JLINK_IsHalted()  returns FALSE (0001ms, 18166ms total)
T3538 987:051 JLINK_IsHalted() -- CPU_ReadMem(2 bytes @ 0x20000000)  returns TRUE (0002ms, 18167ms total)
T3538 987:053 JLINK_ReadReg(R15 (PC))  returns 0x20000000 (0000ms, 18165ms total)
T3538 987:053 JLINK_ClrBPEx(BPHandle = 0x00000006)  returns 0x00 (0000ms, 18165ms total)
T3538 987:053 JLINK_ReadReg(R0)  returns 0x00000000 (0001ms, 18166ms total)
T3538 987:054 JLINK_WriteMem(0x20000188, 0x0278 Bytes, ...) - Data: FA D3 B0 BD 2D E9 F8 4F 5B 4A 4F F0 07 0A 4F F0 ... -- CPU_WriteMem(632 bytes @ 0x20000188)  returns 0x278 (0003ms, 18169ms total)
T3538 987:057 JLINK_WriteMem(0x20000400, 0x0188 Bytes, ...) - Data: 80 42 01 92 01 9A 00 90 08 68 40 F0 80 50 08 60 ... -- CPU_WriteMem(392 bytes @ 0x20000400)  returns 0x188 (0002ms, 18171ms total)
T3538 987:059 JLINK_WriteReg(R0, 0x08000400)  returns 0x00 (0000ms, 18171ms total)
T3538 987:059 JLINK_WriteReg(R1, 0x00000400)  returns 0x00 (0000ms, 18171ms total)
T3538 987:059 JLINK_WriteReg(R2, 0x20000188)  returns 0x00 (0000ms, 18171ms total)
T3538 987:059 JLINK_WriteReg(R3, 0x00000000)  returns 0x00 (0000ms, 18171ms total)
T3538 987:059 JLINK_WriteReg(R4, 0x00000000)  returns 0x00 (0000ms, 18171ms total)
T3538 987:059 JLINK_WriteReg(R5, 0x00000000)  returns 0x00 (0000ms, 18171ms total)
T3538 987:059 JLINK_WriteReg(R6, 0x00000000)  returns 0x00 (0000ms, 18171ms total)
T3538 987:059 JLINK_WriteReg(R7, 0x00000000)  returns 0x00 (0000ms, 18171ms total)
T3538 987:059 JLINK_WriteReg(R8, 0x00000000)  returns 0x00 (0000ms, 18171ms total)
T3538 987:059 JLINK_WriteReg(R9, 0x20000184)  returns 0x00 (0000ms, 18171ms total)
T3538 987:059 JLINK_WriteReg(R10, 0x00000000)  returns 0x00 (0000ms, 18171ms total)
T3538 987:059 JLINK_WriteReg(R11, 0x00000000)  returns 0x00 (0000ms, 18171ms total)
T3538 987:059 JLINK_WriteReg(R12, 0x00000000)  returns 0x00 (0000ms, 18171ms total)
T3538 987:059 JLINK_WriteReg(R13 (SP), 0x20001000)  returns 0x00 (0000ms, 18171ms total)
T3538 987:059 JLINK_WriteReg(R14, 0x20000001)  returns 0x00 (0000ms, 18171ms total)
T3538 987:059 JLINK_WriteReg(R15 (PC), 0x20000112)  returns 0x00 (0000ms, 18171ms total)
T3538 987:059 JLINK_WriteReg(XPSR, 0x01000000)  returns 0x00 (0001ms, 18172ms total)
T3538 987:060 JLINK_WriteReg(MSP, 0x20001000)  returns 0x00 (0000ms, 18172ms total)
T3538 987:060 JLINK_WriteReg(PSP, 0x20001000)  returns 0x00 (0000ms, 18172ms total)
T3538 987:060 JLINK_WriteReg(CFBP, 0x00000000)  returns 0x00 (0000ms, 18172ms total)
T3538 987:060 JLINK_SetBPEx(Addr = 0x20000000, Type = 0xFFFFFFF2)  returns 0x00000007 (0000ms, 18172ms total)
T3538 987:060 JLINK_Go() -- CPU_ReadMem(4 bytes @ 0xE0001000) (0002ms, 18174ms total)
T3538 987:062 JLINK_IsHalted()  returns FALSE (0001ms, 18175ms total)
T3538 987:066 JLINK_IsHalted()  returns FALSE (0000ms, 18174ms total)
T3538 987:068 JLINK_IsHalted() -- CPU_ReadMem(2 bytes @ 0x20000000)  returns TRUE (0003ms, 18177ms total)
T3538 987:071 JLINK_ReadReg(R15 (PC))  returns 0x20000000 (0000ms, 18174ms total)
T3538 987:071 JLINK_ClrBPEx(BPHandle = 0x00000007)  returns 0x00 (0000ms, 18174ms total)
T3538 987:071 JLINK_ReadReg(R0)  returns 0x00000000 (0000ms, 18174ms total)
T3538 987:072 JLINK_WriteMem(0x20000188, 0x0278 Bytes, ...) - Data: C1 00 98 60 1C 46 00 F0 41 F8 A1 68 08 4A 00 24 ... -- CPU_WriteMem(632 bytes @ 0x20000188)  returns 0x278 (0002ms, 18176ms total)
T3538 987:074 JLINK_WriteMem(0x20000400, 0x0188 Bytes, ...) - Data: 88 37 30 6F 80 07 2E D4 FF F7 8A FD 40 1B B8 42 ... -- CPU_WriteMem(392 bytes @ 0x20000400)  returns 0x188 (0002ms, 18178ms total)
T3538 987:076 JLINK_WriteReg(R0, 0x08000800)  returns 0x00 (0000ms, 18178ms total)
T3538 987:076 JLINK_WriteReg(R1, 0x00000400)  returns 0x00 (0000ms, 18178ms total)
T3538 987:077 JLINK_WriteReg(R2, 0x20000188)  returns 0x00 (0000ms, 18179ms total)
T3538 987:077 JLINK_WriteReg(R3, 0x00000000)  returns 0x00 (0000ms, 18179ms total)
T3538 987:077 JLINK_WriteReg(R4, 0x00000000)  returns 0x00 (0000ms, 18179ms total)
T3538 987:077 JLINK_WriteReg(R5, 0x00000000)  returns 0x00 (0000ms, 18179ms total)
T3538 987:077 JLINK_WriteReg(R6, 0x00000000)  returns 0x00 (0000ms, 18179ms total)
T3538 987:077 JLINK_WriteReg(R7, 0x00000000)  returns 0x00 (0000ms, 18179ms total)
T3538 987:077 JLINK_WriteReg(R8, 0x00000000)  returns 0x00 (0000ms, 18179ms total)
T3538 987:077 JLINK_WriteReg(R9, 0x20000184)  returns 0x00 (0000ms, 18179ms total)
T3538 987:077 JLINK_WriteReg(R10, 0x00000000)  returns 0x00 (0000ms, 18179ms total)
T3538 987:077 JLINK_WriteReg(R11, 0x00000000)  returns 0x00 (0000ms, 18179ms total)
T3538 987:077 JLINK_WriteReg(R12, 0x00000000)  returns 0x00 (0000ms, 18179ms total)
T3538 987:077 JLINK_WriteReg(R13 (SP), 0x20001000)  returns 0x00 (0000ms, 18179ms total)
T3538 987:077 JLINK_WriteReg(R14, 0x20000001)  returns 0x00 (0000ms, 18179ms total)
T3538 987:077 JLINK_WriteReg(R15 (PC), 0x20000112)  returns 0x00 (0000ms, 18179ms total)
T3538 987:077 JLINK_WriteReg(XPSR, 0x01000000)  returns 0x00 (0000ms, 18179ms total)
T3538 987:077 JLINK_WriteReg(MSP, 0x20001000)  returns 0x00 (0000ms, 18179ms total)
T3538 987:077 JLINK_WriteReg(PSP, 0x20001000)  returns 0x00 (0000ms, 18179ms total)
T3538 987:077 JLINK_WriteReg(CFBP, 0x00000000)  returns 0x00 (0000ms, 18179ms total)
T3538 987:077 JLINK_SetBPEx(Addr = 0x20000000, Type = 0xFFFFFFF2)  returns 0x00000008 (0000ms, 18179ms total)
T3538 987:077 JLINK_Go() -- CPU_ReadMem(4 bytes @ 0xE0001000) (0002ms, 18181ms total)
T3538 987:079 JLINK_IsHalted()  returns FALSE (0001ms, 18182ms total)
T3538 987:082 JLINK_IsHalted()  returns FALSE (0000ms, 18181ms total)
T3538 987:084 JLINK_IsHalted() -- CPU_ReadMem(2 bytes @ 0x20000000)  returns TRUE (0003ms, 18184ms total)
T3538 987:087 JLINK_ReadReg(R15 (PC))  returns 0x20000000 (0000ms, 18181ms total)
T3538 987:087 JLINK_ClrBPEx(BPHandle = 0x00000008)  returns 0x00 (0000ms, 18181ms total)
T3538 987:087 JLINK_ReadReg(R0)  returns 0x00000000 (0000ms, 18181ms total)
T3538 987:088 JLINK_WriteMem(0x20000188, 0x0278 Bytes, ...) - Data: 01 01 C1 60 81 68 01 F0 07 01 06 29 1E BF 01 68 ... -- CPU_WriteMem(632 bytes @ 0x20000188)  returns 0x278 (0003ms, 18184ms total)
T3538 987:091 JLINK_WriteMem(0x20000400, 0x0188 Bytes, ...) - Data: 02 50 0F 20 01 90 01 A8 FF F7 48 FC 12 B0 B0 BD ... -- CPU_WriteMem(392 bytes @ 0x20000400)  returns 0x188 (0002ms, 18186ms total)
T3538 987:093 JLINK_WriteReg(R0, 0x08000C00)  returns 0x00 (0000ms, 18186ms total)
T3538 987:093 JLINK_WriteReg(R1, 0x00000400)  returns 0x00 (0000ms, 18186ms total)
T3538 987:093 JLINK_WriteReg(R2, 0x20000188)  returns 0x00 (0000ms, 18186ms total)
T3538 987:093 JLINK_WriteReg(R3, 0x00000000)  returns 0x00 (0000ms, 18186ms total)
T3538 987:093 JLINK_WriteReg(R4, 0x00000000)  returns 0x00 (0000ms, 18186ms total)
T3538 987:093 JLINK_WriteReg(R5, 0x00000000)  returns 0x00 (0000ms, 18186ms total)
T3538 987:093 JLINK_WriteReg(R6, 0x00000000)  returns 0x00 (0000ms, 18186ms total)
T3538 987:093 JLINK_WriteReg(R7, 0x00000000)  returns 0x00 (0000ms, 18186ms total)
T3538 987:093 JLINK_WriteReg(R8, 0x00000000)  returns 0x00 (0000ms, 18186ms total)
T3538 987:093 JLINK_WriteReg(R9, 0x20000184)  returns 0x00 (0000ms, 18186ms total)
T3538 987:093 JLINK_WriteReg(R10, 0x00000000)  returns 0x00 (0000ms, 18186ms total)
T3538 987:093 JLINK_WriteReg(R11, 0x00000000)  returns 0x00 (0000ms, 18186ms total)
T3538 987:093 JLINK_WriteReg(R12, 0x00000000)  returns 0x00 (0000ms, 18186ms total)
T3538 987:093 JLINK_WriteReg(R13 (SP), 0x20001000)  returns 0x00 (0000ms, 18186ms total)
T3538 987:093 JLINK_WriteReg(R14, 0x20000001)  returns 0x00 (0000ms, 18186ms total)
T3538 987:093 JLINK_WriteReg(R15 (PC), 0x20000112)  returns 0x00 (0000ms, 18186ms total)
T3538 987:093 JLINK_WriteReg(XPSR, 0x01000000)  returns 0x00 (0000ms, 18186ms total)
T3538 987:093 JLINK_WriteReg(MSP, 0x20001000)  returns 0x00 (0000ms, 18186ms total)
T3538 987:093 JLINK_WriteReg(PSP, 0x20001000)  returns 0x00 (0000ms, 18186ms total)
T3538 987:093 JLINK_WriteReg(CFBP, 0x00000000)  returns 0x00 (0000ms, 18186ms total)
T3538 987:093 JLINK_SetBPEx(Addr = 0x20000000, Type = 0xFFFFFFF2)  returns 0x00000009 (0000ms, 18186ms total)
T3538 987:093 JLINK_Go() -- CPU_ReadMem(4 bytes @ 0xE0001000) (0003ms, 18189ms total)
T3538 987:096 JLINK_IsHalted()  returns FALSE (0001ms, 18190ms total)
T3538 987:099 JLINK_IsHalted()  returns FALSE (0000ms, 18189ms total)
T3538 987:101 JLINK_IsHalted() -- CPU_ReadMem(2 bytes @ 0x20000000)  returns TRUE (0002ms, 18191ms total)
T3538 987:103 JLINK_ReadReg(R15 (PC))  returns 0x20000000 (0000ms, 18189ms total)
T3538 987:103 JLINK_ClrBPEx(BPHandle = 0x00000009)  returns 0x00 (0000ms, 18189ms total)
T3538 987:103 JLINK_ReadReg(R0)  returns 0x00000000 (0001ms, 18190ms total)
T3538 987:104 JLINK_WriteMem(0x20000188, 0x0278 Bytes, ...) - Data: 01 00 00 00 10 00 00 00 00 24 F4 00 00 00 00 00 ... -- CPU_WriteMem(632 bytes @ 0x20000188)  returns 0x278 (0003ms, 18193ms total)
T3538 987:107 JLINK_WriteMem(0x20000400, 0x0188 Bytes, ...) - Data: FF FF FF FF FF FF FF FF FF FF FF FF FF FF FF FF ... -- CPU_WriteMem(392 bytes @ 0x20000400)  returns 0x188 (0002ms, 18195ms total)
T3538 987:109 JLINK_WriteReg(R0, 0x08001000)  returns 0x00 (0001ms, 18196ms total)
T3538 987:110 JLINK_WriteReg(R1, 0x00000010)  returns 0x00 (0000ms, 18196ms total)
T3538 987:110 JLINK_WriteReg(R2, 0x20000188)  returns 0x00 (0000ms, 18196ms total)
T3538 987:110 JLINK_WriteReg(R3, 0x00000000)  returns 0x00 (0000ms, 18196ms total)
T3538 987:110 JLINK_WriteReg(R4, 0x00000000)  returns 0x00 (0000ms, 18196ms total)
T3538 987:110 JLINK_WriteReg(R5, 0x00000000)  returns 0x00 (0000ms, 18196ms total)
T3538 987:110 JLINK_WriteReg(R6, 0x00000000)  returns 0x00 (0000ms, 18196ms total)
T3538 987:110 JLINK_WriteReg(R7, 0x00000000)  returns 0x00 (0000ms, 18196ms total)
T3538 987:110 JLINK_WriteReg(R8, 0x00000000)  returns 0x00 (0000ms, 18196ms total)
T3538 987:110 JLINK_WriteReg(R9, 0x20000184)  returns 0x00 (0000ms, 18196ms total)
T3538 987:110 JLINK_WriteReg(R10, 0x00000000)  returns 0x00 (0000ms, 18196ms total)
T3538 987:110 JLINK_WriteReg(R11, 0x00000000)  returns 0x00 (0000ms, 18196ms total)
T3538 987:110 JLINK_WriteReg(R12, 0x00000000)  returns 0x00 (0000ms, 18196ms total)
T3538 987:110 JLINK_WriteReg(R13 (SP), 0x20001000)  returns 0x00 (0000ms, 18196ms total)
T3538 987:110 JLINK_WriteReg(R14, 0x20000001)  returns 0x00 (0000ms, 18196ms total)
T3538 987:110 JLINK_WriteReg(R15 (PC), 0x20000112)  returns 0x00 (0000ms, 18196ms total)
T3538 987:110 JLINK_WriteReg(XPSR, 0x01000000)  returns 0x00 (0000ms, 18196ms total)
T3538 987:110 JLINK_WriteReg(MSP, 0x20001000)  returns 0x00 (0000ms, 18196ms total)
T3538 987:110 JLINK_WriteReg(PSP, 0x20001000)  returns 0x00 (0000ms, 18196ms total)
T3538 987:110 JLINK_WriteReg(CFBP, 0x00000000)  returns 0x00 (0000ms, 18196ms total)
T3538 987:110 JLINK_SetBPEx(Addr = 0x20000000, Type = 0xFFFFFFF2)  returns 0x0000000A (0000ms, 18196ms total)
T3538 987:110 JLINK_Go() -- CPU_ReadMem(4 bytes @ 0xE0001000) (0003ms, 18199ms total)
T3538 987:113 JLINK_IsHalted() -- CPU_ReadMem(2 bytes @ 0x20000000)  returns TRUE (0002ms, 18201ms total)
T3538 987:115 JLINK_ReadReg(R15 (PC))  returns 0x20000000 (0000ms, 18199ms total)
T3538 987:115 JLINK_ClrBPEx(BPHandle = 0x0000000A)  returns 0x00 (0000ms, 18199ms total)
T3538 987:115 JLINK_ReadReg(R0)  returns 0x00000000 (0001ms, 18200ms total)
T3538 987:116 JLINK_WriteReg(R0, 0x00000002)  returns 0x00 (0000ms, 18200ms total)
T3538 987:116 JLINK_WriteReg(R1, 0x00000010)  returns 0x00 (0000ms, 18200ms total)
T3538 987:116 JLINK_WriteReg(R2, 0x20000188)  returns 0x00 (0000ms, 18200ms total)
T3538 987:116 JLINK_WriteReg(R3, 0x00000000)  returns 0x00 (0000ms, 18200ms total)
T3538 987:116 JLINK_WriteReg(R4, 0x00000000)  returns 0x00 (0000ms, 18200ms total)
T3538 987:116 JLINK_WriteReg(R5, 0x00000000)  returns 0x00 (0000ms, 18200ms total)
T3538 987:116 JLINK_WriteReg(R6, 0x00000000)  returns 0x00 (0000ms, 18200ms total)
T3538 987:116 JLINK_WriteReg(R7, 0x00000000)  returns 0x00 (0000ms, 18200ms total)
T3538 987:116 JLINK_WriteReg(R8, 0x00000000)  returns 0x00 (0000ms, 18200ms total)
T3538 987:116 JLINK_WriteReg(R9, 0x20000184)  returns 0x00 (0000ms, 18200ms total)
T3538 987:116 JLINK_WriteReg(R10, 0x00000000)  returns 0x00 (0000ms, 18200ms total)
T3538 987:116 JLINK_WriteReg(R11, 0x00000000)  returns 0x00 (0000ms, 18200ms total)
T3538 987:116 JLINK_WriteReg(R12, 0x00000000)  returns 0x00 (0000ms, 18200ms total)
T3538 987:116 JLINK_WriteReg(R13 (SP), 0x20001000)  returns 0x00 (0000ms, 18200ms total)
T3538 987:116 JLINK_WriteReg(R14, 0x20000001)  returns 0x00 (0000ms, 18200ms total)
T3538 987:116 JLINK_WriteReg(R15 (PC), 0x2000008C)  returns 0x00 (0000ms, 18200ms total)
T3538 987:116 JLINK_WriteReg(XPSR, 0x01000000)  returns 0x00 (0000ms, 18200ms total)
T3538 987:116 JLINK_WriteReg(MSP, 0x20001000)  returns 0x00 (0000ms, 18200ms total)
T3538 987:116 JLINK_WriteReg(PSP, 0x20001000)  returns 0x00 (0000ms, 18200ms total)
T3538 987:116 JLINK_WriteReg(CFBP, 0x00000000)  returns 0x00 (0000ms, 18200ms total)
T3538 987:116 JLINK_SetBPEx(Addr = 0x20000000, Type = 0xFFFFFFF2)  returns 0x0000000B (0000ms, 18200ms total)
T3538 987:116 JLINK_Go() -- CPU_ReadMem(4 bytes @ 0xE0001000) (0003ms, 18203ms total)
T3538 987:120 JLINK_IsHalted() -- CPU_ReadMem(2 bytes @ 0x20000000)  returns TRUE (0002ms, 18205ms total)
T3538 987:122 JLINK_ReadReg(R15 (PC))  returns 0x20000000 (0000ms, 18203ms total)
T3538 987:122 JLINK_ClrBPEx(BPHandle = 0x0000000B)  returns 0x00 (0000ms, 18203ms total)
T3538 987:122 JLINK_ReadReg(R0)  returns 0x00000000 (0000ms, 18203ms total)
T3538 987:179 JLINK_WriteMem(0x20000000, 0x0188 Bytes, ...) - Data: 00 BE 0A E0 0D 78 2D 06 68 40 08 24 40 00 00 D3 ... -- CPU_WriteMem(392 bytes @ 0x20000000)  returns 0x188 (0002ms, 18205ms total)
T3538 987:181 JLINK_WriteReg(R0, 0x08000000)  returns 0x00 (0000ms, 18205ms total)
T3538 987:181 JLINK_WriteReg(R1, 0x02FAF080)  returns 0x00 (0000ms, 18205ms total)
T3538 987:181 JLINK_WriteReg(R2, 0x00000003)  returns 0x00 (0000ms, 18205ms total)
T3538 987:181 JLINK_WriteReg(R3, 0x00000000)  returns 0x00 (0000ms, 18205ms total)
T3538 987:181 JLINK_WriteReg(R4, 0x00000000)  returns 0x00 (0000ms, 18205ms total)
T3538 987:181 JLINK_WriteReg(R5, 0x00000000)  returns 0x00 (0000ms, 18205ms total)
T3538 987:181 JLINK_WriteReg(R6, 0x00000000)  returns 0x00 (0000ms, 18205ms total)
T3538 987:181 JLINK_WriteReg(R7, 0x00000000)  returns 0x00 (0000ms, 18205ms total)
T3538 987:181 JLINK_WriteReg(R8, 0x00000000)  returns 0x00 (0000ms, 18205ms total)
T3538 987:181 JLINK_WriteReg(R9, 0x20000184)  returns 0x00 (0000ms, 18205ms total)
T3538 987:181 JLINK_WriteReg(R10, 0x00000000)  returns 0x00 (0000ms, 18205ms total)
T3538 987:181 JLINK_WriteReg(R11, 0x00000000)  returns 0x00 (0000ms, 18205ms total)
T3538 987:181 JLINK_WriteReg(R12, 0x00000000)  returns 0x00 (0000ms, 18205ms total)
T3538 987:181 JLINK_WriteReg(R13 (SP), 0x20001000)  returns 0x00 (0000ms, 18205ms total)
T3538 987:181 JLINK_WriteReg(R14, 0x20000001)  returns 0x00 (0000ms, 18205ms total)
T3538 987:181 JLINK_WriteReg(R15 (PC), 0x2000005E)  returns 0x00 (0000ms, 18205ms total)
T3538 987:181 JLINK_WriteReg(XPSR, 0x01000000)  returns 0x00 (0001ms, 18206ms total)
T3538 987:182 JLINK_WriteReg(MSP, 0x20001000)  returns 0x00 (0000ms, 18206ms total)
T3538 987:182 JLINK_WriteReg(PSP, 0x20001000)  returns 0x00 (0000ms, 18206ms total)
T3538 987:182 JLINK_WriteReg(CFBP, 0x00000000)  returns 0x00 (0000ms, 18206ms total)
T3538 987:182 JLINK_SetBPEx(Addr = 0x20000000, Type = 0xFFFFFFF2) -- CPU_ReadMem(2 bytes @ 0x20000000)  returns 0x0000000C (0000ms, 18206ms total)
T3538 987:182 JLINK_Go() -- CPU_WriteMem(2 bytes @ 0x20000000) -- CPU_ReadMem(4 bytes @ 0xE0001000) (0003ms, 18209ms total)
T3538 987:185 JLINK_IsHalted() -- CPU_ReadMem(2 bytes @ 0x20000000)  returns TRUE (0003ms, 18212ms total)
T3538 987:188 JLINK_ReadReg(R15 (PC))  returns 0x20000000 (0000ms, 18209ms total)
T3538 987:188 JLINK_ClrBPEx(BPHandle = 0x0000000C)  returns 0x00 (0000ms, 18209ms total)
T3538 987:188 JLINK_ReadReg(R0)  returns 0x00000000 (0000ms, 18209ms total)
T3538 987:188 JLINK_WriteReg(R0, 0xFFFFFFFF)  returns 0x00 (0000ms, 18209ms total)
T3538 987:188 JLINK_WriteReg(R1, 0x08000000)  returns 0x00 (0000ms, 18209ms total)
T3538 987:188 JLINK_WriteReg(R2, 0x00001010)  returns 0x00 (0000ms, 18209ms total)
T3538 987:188 JLINK_WriteReg(R3, 0x04C11DB7)  returns 0x00 (0000ms, 18209ms total)
T3538 987:188 JLINK_WriteReg(R4, 0x00000000)  returns 0x00 (0000ms, 18209ms total)
T3538 987:188 JLINK_WriteReg(R5, 0x00000000)  returns 0x00 (0000ms, 18209ms total)
T3538 987:188 JLINK_WriteReg(R6, 0x00000000)  returns 0x00 (0000ms, 18209ms total)
T3538 987:188 JLINK_WriteReg(R7, 0x00000000)  returns 0x00 (0000ms, 18209ms total)
T3538 987:188 JLINK_WriteReg(R8, 0x00000000)  returns 0x00 (0000ms, 18209ms total)
T3538 987:188 JLINK_WriteReg(R9, 0x20000184)  returns 0x00 (0000ms, 18209ms total)
T3538 987:188 JLINK_WriteReg(R10, 0x00000000)  returns 0x00 (0000ms, 18209ms total)
T3538 987:188 JLINK_WriteReg(R11, 0x00000000)  returns 0x00 (0000ms, 18209ms total)
T3538 987:188 JLINK_WriteReg(R12, 0x00000000)  returns 0x00 (0000ms, 18209ms total)
T3538 987:188 JLINK_WriteReg(R13 (SP), 0x20001000)  returns 0x00 (0000ms, 18209ms total)
T3538 987:189 JLINK_WriteReg(R14, 0x20000001)  returns 0x00 (0000ms, 18209ms total)
T3538 987:189 JLINK_WriteReg(R15 (PC), 0x20000002)  returns 0x00 (0000ms, 18209ms total)
T3538 987:189 JLINK_WriteReg(XPSR, 0x01000000)  returns 0x00 (0000ms, 18209ms total)
T3538 987:189 JLINK_WriteReg(MSP, 0x20001000)  returns 0x00 (0000ms, 18209ms total)
T3538 987:189 JLINK_WriteReg(PSP, 0x20001000)  returns 0x00 (0000ms, 18209ms total)
T3538 987:189 JLINK_WriteReg(CFBP, 0x00000000)  returns 0x00 (0000ms, 18209ms total)
T3538 987:189 JLINK_SetBPEx(Addr = 0x20000000, Type = 0xFFFFFFF2)  returns 0x0000000D (0000ms, 18209ms total)
T3538 987:189 JLINK_Go() -- CPU_ReadMem(4 bytes @ 0xE0001000) (0002ms, 18211ms total)
T3538 987:191 JLINK_IsHalted()  returns FALSE (0001ms, 18212ms total)
T3538 987:196 JLINK_IsHalted()  returns FALSE (0000ms, 18211ms total)
T3538 987:198 JLINK_IsHalted()  returns FALSE (0000ms, 18211ms total)
T3538 987:200 JLINK_IsHalted()  returns FALSE (0001ms, 18212ms total)
T3538 987:203 JLINK_IsHalted()  returns FALSE (0000ms, 18211ms total)
T3538 987:205 JLINK_IsHalted()  returns FALSE (0000ms, 18211ms total)
T3538 987:207 JLINK_IsHalted()  returns FALSE (0000ms, 18211ms total)
T3538 987:209 JLINK_IsHalted()  returns FALSE (0000ms, 18211ms total)
T3538 987:211 JLINK_IsHalted()  returns FALSE (0000ms, 18211ms total)
